T0750 000:005.932   SEGGER J-Link V8.94 Log File
T0750 000:006.007   DLL Compiled: Dec 10 2025 14:45:18
T0750 000:006.011   Logging started @ 2026-07-13 05:25
T0750 000:006.014   Process: D:\MDK\Keil_v5\UV4\UV4.exe
T0750 000:006.019 - 6.017ms 
T0750 000:006.025 JLINK_SetWarnOutHandler(...)
T0750 000:006.028 - 0.003ms 
T0750 000:006.032 JLINK_OpenEx(...)
T0750 000:009.160   Firmware: J-Link Pro V4 V11 PLUS Jan compiled 4 2025 15:28:35
T0750 000:010.207   Firmware: J-Link Pro V4 V11 PLUS Jan compiled 4 2025 15:28:35
T0750 000:010.293   Decompressing FW timestamp took 69 us
T0750 000:024.708   Hardware: V11.00
T0750 000:024.717   S/N: 601022865
T0750 000:024.721   OEM: SEGGER
T0750 000:024.725   Feature(s): FlashBP, GDB, JFlash, FlashDL, RDI
T0750 000:026.106   Bootloader: (FW returned invalid version)
T0750 000:026.898   USB speed mode: Full speed (12 MBit/s)
T0750 000:027.820   TELNET listener socket opened on port 19021
T0750 000:027.882   WEBSRV WEBSRV_Init(): Starting webserver thread(s)
T0750 000:027.954   WEBSRV Webserver running on local port 19080
T0750 000:028.021   Looking for J-Link GUI Server exe at: D:\MDK\Keil_v5\ARM\Segger\JLinkGUIServer.exe
T0750 000:028.072   Looking for J-Link GUI Server exe at: C:\Program Files\SEGGER\JLink\JLinkGUIServer.exe
T0750 000:028.105   Forking J-Link GUI Server: C:\Program Files\SEGGER\JLink\JLinkGUIServer.exe
T0750 000:136.046   J-Link GUI Server info: "J-Link GUI server V8.94 "
T0750 000:139.252 - 133.215ms returns "O.K."
T0750 000:139.269 JLINK_GetEmuCaps()
T0750 000:139.274 - 0.004ms returns 0xB9FF7BBF
T0750 000:139.280 JLINK_TIF_GetAvailable(...)
T0750 000:139.439 - 0.159ms 
T0750 000:139.450 JLINK_SetErrorOutHandler(...)
T0750 000:139.453 - 0.003ms 
T0750 000:139.468 JLINK_ExecCommand("ProjectFile = "E:\BUildingMCU\PMSM_DEV40V2.2COP\project\MDK_V5\JLinkSettings.ini"", ...). 
T0750 000:146.365   Ref file found at: D:\MDK\Keil_v5\ARM\Segger\JLinkDevices.ref
T0750 000:146.427   REF file references invalid XML file: C:\Program Files\SEGGER\JLink\JLinkDevices.xml
T0750 000:146.934 - 7.466ms returns 0x00
T0750 000:156.860 JLINK_ExecCommand("Device = AT32M412CBT7", ...). 
T0750 000:157.238   Flash bank @ 0x08000000: SFL: Parsing sectorization info from ELF file
T0750 000:157.244     FlashDevice.SectorInfo[0]: .SectorSize = 0x00000400, .SectorStartAddr = 0x00000000
T0750 000:157.249   FlashBank @0x08000000: Sectorization info from SFL ELF file ignored because sectorization override from DLL / XML file is active.
T0750 000:157.274   Flash bank @ 0x1FFFF800: SFL: Parsing sectorization info from ELF file
T0750 000:157.278     FlashDevice.SectorInfo[0]: .SectorSize = 0x00000200, .SectorStartAddr = 0x00000000
T0750 000:157.283   FlashBank @0x1FFFF800: Sectorization info from SFL ELF file ignored because sectorization override from DLL / XML file is active.
T0750 000:164.175   Device "AT32M412CBT7" selected.
T0750 000:164.416 - 7.545ms returns 0x00
T0750 000:164.424 JLINK_ExecCommand("DisableConnectionTimeout", ...). 
T0750 000:164.433   ERROR: Unknown command
T0750 000:164.437 - 0.008ms returns 0x01
T0750 000:164.441 JLINK_GetHardwareVersion()
T0750 000:164.444 - 0.003ms returns 110000
T0750 000:164.448 JLINK_GetDLLVersion()
T0750 000:164.451 - 0.002ms returns 89400
T0750 000:164.454 JLINK_GetOEMString(...)
T0750 000:164.458 JLINK_GetFirmwareString(...)
T0750 000:164.461 - 0.003ms 
T0750 000:177.218 JLINK_GetDLLVersion()
T0750 000:177.227 - 0.008ms returns 89400
T0750 000:177.231 JLINK_GetCompileDateTime()
T0750 000:177.234 - 0.002ms 
T0750 000:182.984 JLINK_GetFirmwareString(...)
T0750 000:182.992 - 0.008ms 
T0750 000:187.917 JLINK_GetHardwareVersion()
T0750 000:187.925 - 0.008ms returns 110000
T0750 000:193.130 JLINK_GetSN()
T0750 000:193.139 - 0.008ms returns 601022865
T0750 000:197.930 JLINK_GetOEMString(...)
T0750 000:208.054 JLINK_TIF_Select(JLINKARM_TIF_SWD)
T0750 000:209.319 - 1.267ms returns 0x00
T0750 000:209.329 JLINK_HasError()
T0750 000:209.335 JLINK_SetSpeed(5000)
T0750 000:209.714 - 0.379ms 
T0750 000:209.725 JLINK_GetId()
T0750 000:214.687   InitTarget() start
T0750 000:214.699    J-Link Script File: Executing InitTarget()
T0750 000:221.965   DAP initialized successfully.
T0750 000:227.626     No Protection is set.
T0750 000:232.681   InitTarget() end - Took 12.9ms
T0750 000:239.394   Found SW-DP with ID 0x2BA01477
T0750 000:248.298   DPIDR: 0x2BA01477
T0750 000:253.883   CoreSight SoC-400 or earlier
T0750 000:259.360   Scanning AP map to find all available APs
T0750 000:264.722   AP[1]: Stopped AP scan as end of AP map has been reached
T0750 000:269.914   AP[0]: AHB-AP (IDR: 0x24770011, ADDR: 0x00000000)
T0750 000:274.776   Iterating through AP map to find AHB-AP to use
T0750 000:282.652   AP[0]: Core found
T0750 000:287.583   AP[0]: AHB-AP ROM base: 0xE00FF000
T0750 000:293.165   CPUID register: 0x410FC241. Implementer code: 0x41 (ARM)
T0750 000:297.955   Found Cortex-M4 r0p1, Little endian.
T0750 000:298.325   -- Max. mem block: 0x00005C58
T0750 000:299.140   CPU_ReadMem(4 bytes @ 0xE000EDF0)
T0750 000:300.139   CPU_WriteMem(4 bytes @ 0xE000EDF0)
T0750 000:301.132   CPU_ReadMem(4 bytes @ 0xE0002000)
T0750 000:306.564   FPUnit: 6 code (BP) slots and 2 literal slots
T0750 000:306.577   CPU_ReadMem(4 bytes @ 0xE000EDFC)
T0750 000:307.137   CPU_WriteMem(4 bytes @ 0xE000EDFC)
T0750 000:307.713   CPU_ReadMem(4 bytes @ 0xE0001000)
T0750 000:307.910   CPU_WriteMem(4 bytes @ 0xE0001000)
T0750 000:308.715   CPU_ReadMem(4 bytes @ 0xE000ED88)
T0750 000:309.136   CPU_WriteMem(4 bytes @ 0xE000ED88)
T0750 000:309.747   CPU_ReadMem(4 bytes @ 0xE000ED88)
T0750 000:309.970   CPU_WriteMem(4 bytes @ 0xE000ED88)
T0750 000:317.185   CoreSight components:
T0750 000:322.352   ROMTbl[0] @ E00FF000
T0750 000:322.364   CPU_ReadMem(64 bytes @ 0xE00FF000)
T0750 000:323.187   CPU_ReadMem(32 bytes @ 0xE000EFE0)
T0750 000:328.539   [0][0]: E000E000 CID B105E00D PID 000BB00C SCS-M7
T0750 000:328.552   CPU_ReadMem(32 bytes @ 0xE0001FE0)
T0750 000:334.229   [0][1]: E0001000 CID B105E00D PID 003BB002 DWT
T0750 000:334.242   CPU_ReadMem(32 bytes @ 0xE0002FE0)
T0750 000:339.942   [0][2]: E0002000 CID B105E00D PID 002BB003 FPB
T0750 000:339.954   CPU_ReadMem(32 bytes @ 0xE0000FE0)
T0750 000:345.915   [0][3]: E0000000 CID B105E00D PID 003BB001 ITM
T0750 000:345.927   CPU_ReadMem(32 bytes @ 0xE0040FE0)
T0750 000:352.010   [0][4]: E0040000 CID B105900D PID 000BB9A1 TPIU
T0750 000:352.270 - 142.544ms returns 0x2BA01477
T0750 000:352.289 JLINK_GetDLLVersion()
T0750 000:352.292 - 0.003ms returns 89400
T0750 000:352.297 JLINK_CORE_GetFound()
T0750 000:352.300 - 0.003ms returns 0xE0000FF
T0750 000:352.331 JLINK_GetDebugInfo(0x100 = JLINKARM_ROM_TABLE_ADDR_INDEX)
T0750 000:352.342   Value=0xE00FF000
T0750 000:352.347 - 0.015ms returns 0
T0750 000:357.475 JLINK_GetDebugInfo(0x100 = JLINKARM_ROM_TABLE_ADDR_INDEX)
T0750 000:357.484   Value=0xE00FF000
T0750 000:357.488 - 0.013ms returns 0
T0750 000:357.492 JLINK_GetDebugInfo(0x101 = JLINKARM_DEBUG_INFO_ETM_ADDR_INDEX)
T0750 000:357.495   Value=0x00000000
T0750 000:357.499 - 0.007ms returns 0
T0750 000:357.503 JLINK_ReadMemEx(0xE0041FF0, 0x10 Bytes, Flags = 0x02000004)
T0750 000:357.519   CPU_ReadMem(16 bytes @ 0xE0041FF0)
T0750 000:358.148   Data:  00 00 00 00 00 00 00 00 00 00 00 00 00 00 00 00
T0750 000:358.157 - 0.653ms returns 16 (0x10)
T0750 000:358.162 JLINK_GetDebugInfo(0x102 = JLINKARM_DEBUG_INFO_MTB_ADDR_INDEX)
T0750 000:358.165   Value=0x00000000
T0750 000:358.169 - 0.007ms returns 0
T0750 000:358.172 JLINK_GetDebugInfo(0x103 = JLINKARM_DEBUG_INFO_TPIU_ADDR_INDEX)
T0750 000:358.175   Value=0xE0040000
T0750 000:358.179 - 0.007ms returns 0
T0750 000:358.182 JLINK_GetDebugInfo(0x104 = JLINKARM_DEBUG_INFO_ITM_ADDR_INDEX)
T0750 000:358.185   Value=0xE0000000
T0750 000:358.189 - 0.006ms returns 0
T0750 000:358.192 JLINK_GetDebugInfo(0x105 = JLINKARM_DEBUG_INFO_DWT_ADDR_INDEX)
T0750 000:358.195   Value=0xE0001000
T0750 000:358.199 - 0.006ms returns 0
T0750 000:358.202 JLINK_GetDebugInfo(0x106 = JLINKARM_DEBUG_INFO_FPB_ADDR_INDEX)
T0750 000:358.205   Value=0xE0002000
T0750 000:358.213 - 0.010ms returns 0
T0750 000:358.216 JLINK_GetDebugInfo(0x107 = JLINKARM_DEBUG_INFO_NVIC_ADDR_INDEX)
T0750 000:358.219   Value=0xE000E000
T0750 000:358.223 - 0.006ms returns 0
T0750 000:358.226 JLINK_GetDebugInfo(0x10C = JLINKARM_DEBUG_INFO_DBG_ADDR_INDEX)
T0750 000:358.229   Value=0xE000EDF0
T0750 000:358.233 - 0.006ms returns 0
T0750 000:358.236 JLINK_GetDebugInfo(0x01 = Unknown)
T0750 000:358.239   Value=0x00000001
T0750 000:358.243 - 0.007ms returns 0
T0750 000:358.246 JLINK_ReadMemU32(0xE000ED00, 0x1 Items)
T0750 000:358.252   CPU_ReadMem(4 bytes @ 0xE000ED00)
T0750 000:358.716   Data:  41 C2 0F 41
T0750 000:358.727   Debug reg: CPUID
T0750 000:358.732 - 0.485ms returns 1 (0x1)
T0750 000:358.737 JLINK_GetDebugInfo(0x10F = JLINKARM_DEBUG_INFO_HAS_CORTEX_M_SECURITY_EXT_INDEX)
T0750 000:358.740   Value=0x00000000
T0750 000:358.744 - 0.007ms returns 0
T0750 000:358.748 JLINK_HasError()
T0750 000:358.752 JLINK_SetResetType(JLINKARM_CM3_RESET_TYPE_NORMAL)
T0750 000:358.755 - 0.003ms returns JLINKARM_CM3_RESET_TYPE_NORMAL
T0750 000:358.759 JLINK_Reset()
T0750 000:358.766   JLINK_GetResetTypeDesc
T0750 000:358.769   - 0.003ms 
T0750 000:364.058   Reset type: NORMAL (https://kb.segger.com/J-Link_Reset_Strategies)
T0750 000:364.071   CPU is running
T0750 000:364.077   CPU_WriteMem(4 bytes @ 0xE000EDF0)
T0750 000:365.133   CPU is running
T0750 000:365.143   CPU_WriteMem(4 bytes @ 0xE000EDFC)
T0750 000:371.254   Reset: Halt core after reset via DEMCR.VC_CORERESET.
T0750 000:377.157   Reset: Reset device via AIRCR.SYSRESETREQ.
T0750 000:377.168   CPU is running
T0750 000:377.174   CPU_WriteMem(4 bytes @ 0xE000ED0C)
T0750 000:430.616   CPU_ReadMem(4 bytes @ 0xE000EDF0)
T0750 000:431.137   CPU_ReadMem(4 bytes @ 0xE000EDF0)
T0750 000:433.791   CPU_WriteMem(4 bytes @ 0xE000EDFC)
T0750 000:441.587   CPU_ReadMem(4 bytes @ 0xE000EDF0)
T0750 000:444.207   CPU_WriteMem(4 bytes @ 0xE0002000)
T0750 000:445.137   CPU_ReadMem(4 bytes @ 0xE000EDFC)
T0750 000:446.138   CPU_ReadMem(4 bytes @ 0xE0001000)
T0750 000:446.334 - 87.574ms 
T0750 000:446.348 JLINK_Halt()
T0750 000:446.352 - 0.003ms returns 0x00
T0750 000:446.357 JLINK_ReadMemU32(0xE000EDF0, 0x1 Items)
T0750 000:446.365   CPU_ReadMem(4 bytes @ 0xE000EDF0)
T0750 000:446.622   Data:  03 00 03 00
T0750 000:446.630   Debug reg: DHCSR
T0750 000:446.634 - 0.277ms returns 1 (0x1)
T0750 000:446.642 JLINK_WriteU32(0xE000EDF0, 0xA05F0003)
T0750 000:446.645   Debug reg: DHCSR
T0750 000:446.762   CPU_WriteMem(4 bytes @ 0xE000EDF0)
T0750 000:447.136 - 0.493ms returns 0 (0x00000000)
T0750 000:447.147 JLINK_WriteU32(0xE000EDFC, 0x01000000)
T0750 000:447.150   Debug reg: DEMCR
T0750 000:447.158   CPU_WriteMem(4 bytes @ 0xE000EDFC)
T0750 000:447.715 - 0.567ms returns 0 (0x00000000)
T0750 000:467.549 JLINK_GetHWStatus(...)
T0750 000:467.727 - 0.178ms returns 0
T0750 000:482.266 JLINK_GetNumBPUnits(Type = 0xFFFFFF00)
T0750 000:482.275 - 0.008ms returns 0x06
T0750 000:482.279 JLINK_GetNumBPUnits(Type = 0xF0)
T0750 000:482.282 - 0.002ms returns 0x2000
T0750 000:482.285 JLINK_GetNumWPUnits()
T0750 000:482.288 - 0.002ms returns 4
T0750 000:496.599 JLINK_GetSpeed()
T0750 000:496.608 - 0.008ms returns 5000
T0750 000:506.014 JLINK_ReadMemU32(0xE000E004, 0x1 Items)
T0750 000:506.027   CPU_ReadMem(4 bytes @ 0xE000E004)
T0750 000:507.139   Data:  02 00 00 00
T0750 000:507.149 - 1.135ms returns 1 (0x1)
T0750 000:507.155 JLINK_ReadMemU32(0xE000E004, 0x1 Items)
T0750 000:507.163   CPU_ReadMem(4 bytes @ 0xE000E004)
T0750 000:508.137   Data:  02 00 00 00
T0750 000:508.146 - 0.990ms returns 1 (0x1)
T0750 000:508.152 JLINK_WriteMemEx(0xE0001000, 0x0000001C Bytes, Flags = 0x02000004)
T0750 000:508.155   Data:  01 00 00 00 00 00 00 00 00 00 00 00 00 00 00 00 ...
T0750 000:508.165   CPU_WriteMem(28 bytes @ 0xE0001000)
T0750 000:508.716 - 0.563ms returns 0x1C
T0750 000:508.728 JLINK_Halt()
T0750 000:508.731 - 0.003ms returns 0x00
T0750 000:508.734 JLINK_IsHalted()
T0750 000:508.738 - 0.003ms returns TRUE
T0750 000:510.913 JLINK_WriteMem(0x20000000, 0x288 Bytes, ...)
T0750 000:510.922   Data:  00 BE 0A E0 0D 78 2D 06 68 40 08 24 40 00 00 D3 ...
T0750 000:511.036   CPU_WriteMem(648 bytes @ 0x20000000)
T0750 000:515.720 - 4.806ms returns 0x288
T0750 000:515.743 JLINK_HasError()
T0750 000:515.748 JLINK_WriteReg(R0, 0x08000000)
T0750 000:515.752 - 0.005ms returns 0
T0750 000:515.756 JLINK_WriteReg(R1, 0x00B71B00)
T0750 000:515.759 - 0.003ms returns 0
T0750 000:515.762 JLINK_WriteReg(R2, 0x00000001)
T0750 000:515.765 - 0.002ms returns 0
T0750 000:515.768 JLINK_WriteReg(R3, 0x00000000)
T0750 000:515.771 - 0.002ms returns 0
T0750 000:515.774 JLINK_WriteReg(R4, 0x00000000)
T0750 000:515.777 - 0.002ms returns 0
T0750 000:515.780 JLINK_WriteReg(R5, 0x00000000)
T0750 000:515.783 - 0.002ms returns 0
T0750 000:515.786 JLINK_WriteReg(R6, 0x00000000)
T0750 000:515.788 - 0.002ms returns 0
T0750 000:515.792 JLINK_WriteReg(R7, 0x00000000)
T0750 000:515.794 - 0.002ms returns 0
T0750 000:515.801 JLINK_WriteReg(R8, 0x00000000)
T0750 000:515.804 - 0.006ms returns 0
T0750 000:515.807 JLINK_WriteReg(R9, 0x20000280)
T0750 000:515.810 - 0.002ms returns 0
T0750 000:515.813 JLINK_WriteReg(R10, 0x00000000)
T0750 000:515.816 - 0.003ms returns 0
T0750 000:515.819 JLINK_WriteReg(R11, 0x00000000)
T0750 000:515.822 - 0.002ms returns 0
T0750 000:515.825 JLINK_WriteReg(R12, 0x00000000)
T0750 000:515.828 - 0.002ms returns 0
T0750 000:515.832 JLINK_WriteReg(R13 (SP), 0x20001000)
T0750 000:515.835 - 0.003ms returns 0
T0750 000:515.838 JLINK_WriteReg(R14, 0x20000001)
T0750 000:515.841 - 0.002ms returns 0
T0750 000:515.845 JLINK_WriteReg(R15 (PC), 0x200000DA)
T0750 000:515.848 - 0.003ms returns 0
T0750 000:515.852 JLINK_WriteReg(XPSR, 0x01000000)
T0750 000:515.854 - 0.003ms returns 0
T0750 000:515.858 JLINK_WriteReg(MSP, 0x20001000)
T0750 000:515.861 - 0.002ms returns 0
T0750 000:515.864 JLINK_WriteReg(PSP, 0x20001000)
T0750 000:515.867 - 0.002ms returns 0
T0750 000:515.870 JLINK_WriteReg(CFBP, 0x00000000)
T0750 000:515.873 - 0.002ms returns 0
T0750 000:515.876 JLINK_SetBPEx(Addr = 0x20000000, Type = 0xFFFFFFF2)
T0750 000:515.883   CPU_ReadMem(2 bytes @ 0x20000000)
T0750 000:516.139 - 0.262ms returns 0x00000001
T0750 000:516.148 JLINK_Go()
T0750 000:516.153   CPU_WriteMem(2 bytes @ 0x20000000)
T0750 000:518.144   CPU_ReadMem(4 bytes @ 0xE0001000)
T0750 000:520.139   CPU_WriteMem(4 bytes @ 0xE0002008)
T0750 000:520.148   CPU_WriteMem(4 bytes @ 0xE000200C)
T0750 000:520.153   CPU_WriteMem(4 bytes @ 0xE0002010)
T0750 000:520.157   CPU_WriteMem(4 bytes @ 0xE0002014)
T0750 000:520.162   CPU_WriteMem(4 bytes @ 0xE0002018)
T0750 000:520.166   CPU_WriteMem(4 bytes @ 0xE000201C)
T0750 000:521.734   CPU_WriteMem(4 bytes @ 0xE0001004)
T0750 000:529.543   Memory map 'after startup completion point' is active
T0750 000:529.553 - 13.405ms 
T0750 000:529.561 JLINK_IsHalted()
T0750 000:531.786   CPU_ReadMem(2 bytes @ 0x20000000)
T0750 000:532.718 - 3.156ms returns TRUE
T0750 000:532.729 JLINK_ReadReg(R15 (PC))
T0750 000:532.734 - 0.004ms returns 0x20000000
T0750 000:532.742 JLINK_ClrBPEx(BPHandle = 0x00000001)
T0750 000:532.745 - 0.003ms returns 0x00
T0750 000:532.750 JLINK_ReadReg(R0)
T0750 000:532.753 - 0.002ms returns 0x00000000
T0750 000:532.930 JLINK_HasError()
T0750 000:532.935 JLINK_WriteReg(R0, 0x08000000)
T0750 000:532.939 - 0.003ms returns 0
T0750 000:532.942 JLINK_WriteReg(R1, 0x00B71B00)
T0750 000:532.945 - 0.002ms returns 0
T0750 000:532.948 JLINK_WriteReg(R2, 0x00000001)
T0750 000:532.951 - 0.002ms returns 0
T0750 000:532.954 JLINK_WriteReg(R3, 0x00000000)
T0750 000:532.957 - 0.002ms returns 0
T0750 000:532.960 JLINK_WriteReg(R4, 0x00000000)
T0750 000:532.963 - 0.002ms returns 0
T0750 000:532.966 JLINK_WriteReg(R5, 0x00000000)
T0750 000:532.969 - 0.002ms returns 0
T0750 000:532.972 JLINK_WriteReg(R6, 0x00000000)
T0750 000:532.975 - 0.002ms returns 0
T0750 000:532.978 JLINK_WriteReg(R7, 0x00000000)
T0750 000:532.980 - 0.002ms returns 0
T0750 000:532.984 JLINK_WriteReg(R8, 0x00000000)
T0750 000:533.022 - 0.038ms returns 0
T0750 000:533.027 JLINK_WriteReg(R9, 0x20000280)
T0750 000:533.030 - 0.003ms returns 0
T0750 000:533.034 JLINK_WriteReg(R10, 0x00000000)
T0750 000:533.036 - 0.002ms returns 0
T0750 000:533.040 JLINK_WriteReg(R11, 0x00000000)
T0750 000:533.042 - 0.002ms returns 0
T0750 000:533.046 JLINK_WriteReg(R12, 0x00000000)
T0750 000:533.048 - 0.002ms returns 0
T0750 000:533.052 JLINK_WriteReg(R13 (SP), 0x20001000)
T0750 000:533.055 - 0.003ms returns 0
T0750 000:533.058 JLINK_WriteReg(R14, 0x20000001)
T0750 000:533.061 - 0.002ms returns 0
T0750 000:533.064 JLINK_WriteReg(R15 (PC), 0x2000012E)
T0750 000:533.067 - 0.002ms returns 0
T0750 000:533.070 JLINK_WriteReg(XPSR, 0x01000000)
T0750 000:533.073 - 0.002ms returns 0
T0750 000:533.076 JLINK_WriteReg(MSP, 0x20001000)
T0750 000:533.081 - 0.005ms returns 0
T0750 000:533.084 JLINK_WriteReg(PSP, 0x20001000)
T0750 000:533.088 - 0.003ms returns 0
T0750 000:533.092 JLINK_WriteReg(CFBP, 0x00000000)
T0750 000:533.101 - 0.008ms returns 0
T0750 000:533.107 JLINK_SetBPEx(Addr = 0x20000000, Type = 0xFFFFFFF2)
T0750 000:533.111 - 0.004ms returns 0x00000002
T0750 000:533.114 JLINK_Go()
T0750 000:533.122   CPU_ReadMem(4 bytes @ 0xE0001000)
T0750 000:536.140 - 3.024ms 
T0750 000:536.148 JLINK_IsHalted()
T0750 000:537.135 - 0.986ms returns FALSE
T0750 000:537.143 JLINK_HasError()
T0750 000:554.216 JLINK_IsHalted()
T0750 000:556.207   CPU_ReadMem(2 bytes @ 0x20000000)
T0750 000:557.138 - 2.922ms returns TRUE
T0750 000:557.147 JLINK_ReadReg(R15 (PC))
T0750 000:557.152 - 0.004ms returns 0x20000000
T0750 000:557.155 JLINK_ClrBPEx(BPHandle = 0x00000002)
T0750 000:557.159 - 0.003ms returns 0x00
T0750 000:557.162 JLINK_ReadReg(R0)
T0750 000:557.165 - 0.003ms returns 0x00000000
T0750 000:608.803 JLINK_HasError()
T0750 000:608.813 JLINK_WriteReg(R0, 0x00000001)
T0750 000:608.818 - 0.004ms returns 0
T0750 000:608.821 JLINK_WriteReg(R1, 0x00B71B00)
T0750 000:608.824 - 0.003ms returns 0
T0750 000:608.827 JLINK_WriteReg(R2, 0x00000001)
T0750 000:608.830 - 0.002ms returns 0
T0750 000:608.833 JLINK_WriteReg(R3, 0x00000000)
T0750 000:608.836 - 0.002ms returns 0
T0750 000:608.839 JLINK_WriteReg(R4, 0x00000000)
T0750 000:608.842 - 0.002ms returns 0
T0750 000:608.845 JLINK_WriteReg(R5, 0x00000000)
T0750 000:608.848 - 0.002ms returns 0
T0750 000:608.851 JLINK_WriteReg(R6, 0x00000000)
T0750 000:608.854 - 0.002ms returns 0
T0750 000:608.857 JLINK_WriteReg(R7, 0x00000000)
T0750 000:608.860 - 0.002ms returns 0
T0750 000:608.863 JLINK_WriteReg(R8, 0x00000000)
T0750 000:608.866 - 0.002ms returns 0
T0750 000:608.869 JLINK_WriteReg(R9, 0x20000280)
T0750 000:608.872 - 0.002ms returns 0
T0750 000:608.875 JLINK_WriteReg(R10, 0x00000000)
T0750 000:608.878 - 0.002ms returns 0
T0750 000:608.881 JLINK_WriteReg(R11, 0x00000000)
T0750 000:608.884 - 0.002ms returns 0
T0750 000:608.887 JLINK_WriteReg(R12, 0x00000000)
T0750 000:608.890 - 0.002ms returns 0
T0750 000:608.893 JLINK_WriteReg(R13 (SP), 0x20001000)
T0750 000:608.896 - 0.003ms returns 0
T0750 000:608.899 JLINK_WriteReg(R14, 0x20000001)
T0750 000:608.902 - 0.002ms returns 0
T0750 000:608.905 JLINK_WriteReg(R15 (PC), 0x20000112)
T0750 000:608.908 - 0.002ms returns 0
T0750 000:608.911 JLINK_WriteReg(XPSR, 0x01000000)
T0750 000:608.914 - 0.002ms returns 0
T0750 000:608.917 JLINK_WriteReg(MSP, 0x20001000)
T0750 000:608.920 - 0.002ms returns 0
T0750 000:608.923 JLINK_WriteReg(PSP, 0x20001000)
T0750 000:608.926 - 0.002ms returns 0
T0750 000:608.929 JLINK_WriteReg(CFBP, 0x00000000)
T0750 000:608.932 - 0.002ms returns 0
T0750 000:608.936 JLINK_SetBPEx(Addr = 0x20000000, Type = 0xFFFFFFF2)
T0750 000:608.939 - 0.003ms returns 0x00000003
T0750 000:608.942 JLINK_Go()
T0750 000:608.950   CPU_ReadMem(4 bytes @ 0xE0001000)
T0750 000:612.143 - 3.200ms 
T0750 000:612.153 JLINK_IsHalted()
T0750 000:615.783   CPU_ReadMem(2 bytes @ 0x20000000)
T0750 000:616.719 - 4.565ms returns TRUE
T0750 000:616.727 JLINK_ReadReg(R15 (PC))
T0750 000:616.732 - 0.004ms returns 0x20000000
T0750 000:616.735 JLINK_ClrBPEx(BPHandle = 0x00000003)
T0750 000:616.773 - 0.037ms returns 0x00
T0750 000:616.776 JLINK_ReadReg(R0)
T0750 000:616.779 - 0.003ms returns 0x00000000
T0750 000:623.754 JLINK_WriteMem(0x20000000, 0x288 Bytes, ...)
T0750 000:623.760   Data:  00 BE 0A E0 0D 78 2D 06 68 40 08 24 40 00 00 D3 ...
T0750 000:623.770   CPU_WriteMem(648 bytes @ 0x20000000)
T0750 000:628.142 - 4.388ms returns 0x288
T0750 000:628.166 JLINK_HasError()
T0750 000:628.170 JLINK_WriteReg(R0, 0x08000000)
T0750 000:628.175 - 0.004ms returns 0
T0750 000:628.178 JLINK_WriteReg(R1, 0x00B71B00)
T0750 000:628.181 - 0.003ms returns 0
T0750 000:628.184 JLINK_WriteReg(R2, 0x00000002)
T0750 000:628.188 - 0.003ms returns 0
T0750 000:628.191 JLINK_WriteReg(R3, 0x00000000)
T0750 000:628.194 - 0.002ms returns 0
T0750 000:628.197 JLINK_WriteReg(R4, 0x00000000)
T0750 000:628.200 - 0.002ms returns 0
T0750 000:628.203 JLINK_WriteReg(R5, 0x00000000)
T0750 000:628.205 - 0.002ms returns 0
T0750 000:628.209 JLINK_WriteReg(R6, 0x00000000)
T0750 000:628.211 - 0.002ms returns 0
T0750 000:628.214 JLINK_WriteReg(R7, 0x00000000)
T0750 000:628.217 - 0.002ms returns 0
T0750 000:628.220 JLINK_WriteReg(R8, 0x00000000)
T0750 000:628.223 - 0.002ms returns 0
T0750 000:628.226 JLINK_WriteReg(R9, 0x20000280)
T0750 000:628.229 - 0.002ms returns 0
T0750 000:628.232 JLINK_WriteReg(R10, 0x00000000)
T0750 000:628.235 - 0.002ms returns 0
T0750 000:628.238 JLINK_WriteReg(R11, 0x00000000)
T0750 000:628.241 - 0.002ms returns 0
T0750 000:628.244 JLINK_WriteReg(R12, 0x00000000)
T0750 000:628.247 - 0.002ms returns 0
T0750 000:628.250 JLINK_WriteReg(R13 (SP), 0x20001000)
T0750 000:628.253 - 0.003ms returns 0
T0750 000:628.256 JLINK_WriteReg(R14, 0x20000001)
T0750 000:628.259 - 0.002ms returns 0
T0750 000:628.262 JLINK_WriteReg(R15 (PC), 0x200000DA)
T0750 000:628.265 - 0.002ms returns 0
T0750 000:628.268 JLINK_WriteReg(XPSR, 0x01000000)
T0750 000:628.271 - 0.002ms returns 0
T0750 000:628.274 JLINK_WriteReg(MSP, 0x20001000)
T0750 000:628.277 - 0.002ms returns 0
T0750 000:628.280 JLINK_WriteReg(PSP, 0x20001000)
T0750 000:628.283 - 0.002ms returns 0
T0750 000:628.286 JLINK_WriteReg(CFBP, 0x00000000)
T0750 000:628.289 - 0.002ms returns 0
T0750 000:628.293 JLINK_SetBPEx(Addr = 0x20000000, Type = 0xFFFFFFF2)
T0750 000:628.298   CPU_ReadMem(2 bytes @ 0x20000000)
T0750 000:628.562 - 0.269ms returns 0x00000004
T0750 000:628.570 JLINK_Go()
T0750 000:628.576   CPU_WriteMem(2 bytes @ 0x20000000)
T0750 000:629.141   CPU_ReadMem(4 bytes @ 0xE0001000)
T0750 000:632.716 - 4.145ms 
T0750 000:632.725 JLINK_IsHalted()
T0750 000:635.209   CPU_ReadMem(2 bytes @ 0x20000000)
T0750 000:637.144 - 4.418ms returns TRUE
T0750 000:637.155 JLINK_ReadReg(R15 (PC))
T0750 000:637.160 - 0.004ms returns 0x20000000
T0750 000:637.165 JLINK_ClrBPEx(BPHandle = 0x00000004)
T0750 000:637.168 - 0.003ms returns 0x00
T0750 000:637.172 JLINK_ReadReg(R0)
T0750 000:637.174 - 0.003ms returns 0x00000000
T0750 000:637.349 JLINK_WriteMem(0x20000288, 0x178 Bytes, ...)
T0750 000:637.353   Data:  28 0E 00 20 89 02 00 08 E5 0F 00 08 4D 0F 00 08 ...
T0750 000:637.363   CPU_WriteMem(376 bytes @ 0x20000288)
T0750 000:639.718 - 2.367ms returns 0x178
T0750 000:639.727 JLINK_WriteMem(0x20000400, 0x288 Bytes, ...)
T0750 000:639.730   Data:  00 00 00 00 00 00 00 00 00 00 00 00 A3 02 00 08 ...
T0750 000:639.741   CPU_WriteMem(648 bytes @ 0x20000400)
T0750 000:646.137 - 6.410ms returns 0x288
T0750 000:646.147 JLINK_HasError()
T0750 000:646.151 JLINK_WriteReg(R0, 0x08000000)
T0750 000:646.156 - 0.004ms returns 0
T0750 000:646.160 JLINK_WriteReg(R1, 0x00000400)
T0750 000:646.162 - 0.002ms returns 0
T0750 000:646.166 JLINK_WriteReg(R2, 0x20000288)
T0750 000:646.168 - 0.002ms returns 0
T0750 000:646.172 JLINK_WriteReg(R3, 0x00000000)
T0750 000:646.174 - 0.002ms returns 0
T0750 000:646.178 JLINK_WriteReg(R4, 0x00000000)
T0750 000:646.180 - 0.002ms returns 0
T0750 000:646.183 JLINK_WriteReg(R5, 0x00000000)
T0750 000:646.186 - 0.002ms returns 0
T0750 000:646.189 JLINK_WriteReg(R6, 0x00000000)
T0750 000:646.220 - 0.030ms returns 0
T0750 000:646.225 JLINK_WriteReg(R7, 0x00000000)
T0750 000:646.228 - 0.002ms returns 0
T0750 000:646.231 JLINK_WriteReg(R8, 0x00000000)
T0750 000:646.234 - 0.003ms returns 0
T0750 000:646.238 JLINK_WriteReg(R9, 0x20000280)
T0750 000:646.241 - 0.003ms returns 0
T0750 000:646.244 JLINK_WriteReg(R10, 0x00000000)
T0750 000:646.247 - 0.002ms returns 0
T0750 000:646.250 JLINK_WriteReg(R11, 0x00000000)
T0750 000:646.253 - 0.002ms returns 0
T0750 000:646.256 JLINK_WriteReg(R12, 0x00000000)
T0750 000:646.259 - 0.002ms returns 0
T0750 000:646.262 JLINK_WriteReg(R13 (SP), 0x20001000)
T0750 000:646.265 - 0.003ms returns 0
T0750 000:646.268 JLINK_WriteReg(R14, 0x20000001)
T0750 000:646.271 - 0.002ms returns 0
T0750 000:646.275 JLINK_WriteReg(R15 (PC), 0x200001D4)
T0750 000:646.277 - 0.002ms returns 0
T0750 000:646.281 JLINK_WriteReg(XPSR, 0x01000000)
T0750 000:646.284 - 0.002ms returns 0
T0750 000:646.287 JLINK_WriteReg(MSP, 0x20001000)
T0750 000:646.290 - 0.002ms returns 0
T0750 000:646.293 JLINK_WriteReg(PSP, 0x20001000)
T0750 000:646.296 - 0.002ms returns 0
T0750 000:646.299 JLINK_WriteReg(CFBP, 0x00000000)
T0750 000:646.302 - 0.002ms returns 0
T0750 000:646.305 JLINK_SetBPEx(Addr = 0x20000000, Type = 0xFFFFFFF2)
T0750 000:646.309 - 0.003ms returns 0x00000005
T0750 000:646.312 JLINK_Go()
T0750 000:646.319   CPU_ReadMem(4 bytes @ 0xE0001000)
T0750 000:649.136 - 2.823ms 
T0750 000:649.164 JLINK_IsHalted()
T0750 000:649.720 - 0.558ms returns FALSE
T0750 000:649.730 JLINK_HasError()
T0750 000:653.110 JLINK_IsHalted()
T0750 000:653.721 - 0.611ms returns FALSE
T0750 000:653.732 JLINK_HasError()
T0750 000:655.109 JLINK_IsHalted()
T0750 000:655.718 - 0.608ms returns FALSE
T0750 000:655.728 JLINK_HasError()
T0750 000:657.110 JLINK_IsHalted()
T0750 000:657.330 - 0.219ms returns FALSE
T0750 000:657.338 JLINK_HasError()
T0750 000:659.109 JLINK_IsHalted()
T0750 000:659.717 - 0.607ms returns FALSE
T0750 000:659.725 JLINK_HasError()
T0750 000:661.113 JLINK_IsHalted()
T0750 000:661.717 - 0.603ms returns FALSE
T0750 000:661.725 JLINK_HasError()
T0750 000:663.116 JLINK_IsHalted()
T0750 000:663.716 - 0.600ms returns FALSE
T0750 000:663.725 JLINK_HasError()
T0750 000:665.117 JLINK_IsHalted()
T0750 000:665.714 - 0.597ms returns FALSE
T0750 000:665.724 JLINK_HasError()
T0750 000:667.115 JLINK_IsHalted()
T0750 000:667.717 - 0.601ms returns FALSE
T0750 000:667.725 JLINK_HasError()
T0750 000:669.116 JLINK_IsHalted()
T0750 000:669.719 - 0.602ms returns FALSE
T0750 000:669.728 JLINK_HasError()
T0750 000:671.111 JLINK_IsHalted()
T0750 000:671.714 - 0.602ms returns FALSE
T0750 000:671.723 JLINK_HasError()
T0750 000:673.112 JLINK_IsHalted()
T0750 000:673.716 - 0.604ms returns FALSE
T0750 000:673.725 JLINK_HasError()
T0750 000:675.116 JLINK_IsHalted()
T0750 000:675.716 - 0.600ms returns FALSE
T0750 000:675.725 JLINK_HasError()
T0750 000:677.117 JLINK_IsHalted()
T0750 000:679.209   CPU_ReadMem(2 bytes @ 0x20000000)
T0750 000:681.146 - 4.028ms returns TRUE
T0750 000:681.155 JLINK_ReadReg(R15 (PC))
T0750 000:681.160 - 0.004ms returns 0x20000000
T0750 000:681.164 JLINK_ClrBPEx(BPHandle = 0x00000005)
T0750 000:681.167 - 0.003ms returns 0x00
T0750 000:681.171 JLINK_ReadReg(R0)
T0750 000:681.174 - 0.003ms returns 0x00000000
T0750 000:681.570 JLINK_WriteMem(0x20000288, 0x178 Bytes, ...)
T0750 000:681.579   Data:  13 46 94 46 96 46 20 39 22 BF A0 E8 0C 50 A0 E8 ...
T0750 000:681.588   CPU_WriteMem(376 bytes @ 0x20000288)
T0750 000:684.721 - 3.151ms returns 0x178
T0750 000:684.731 JLINK_WriteMem(0x20000400, 0x288 Bytes, ...)
T0750 000:684.735   Data:  C0 E9 1A 11 10 BD 00 00 FE E7 00 00 B0 B5 90 ED ...
T0750 000:684.744   CPU_WriteMem(648 bytes @ 0x20000400)
T0750 000:689.140 - 4.408ms returns 0x288
T0750 000:689.153 JLINK_HasError()
T0750 000:689.180 JLINK_WriteReg(R0, 0x08000400)
T0750 000:689.189 - 0.009ms returns 0
T0750 000:689.193 JLINK_WriteReg(R1, 0x00000400)
T0750 000:689.196 - 0.003ms returns 0
T0750 000:689.199 JLINK_WriteReg(R2, 0x20000288)
T0750 000:689.231 - 0.032ms returns 0
T0750 000:689.234 JLINK_WriteReg(R3, 0x00000000)
T0750 000:689.237 - 0.002ms returns 0
T0750 000:689.241 JLINK_WriteReg(R4, 0x00000000)
T0750 000:689.244 - 0.003ms returns 0
T0750 000:689.247 JLINK_WriteReg(R5, 0x00000000)
T0750 000:689.250 - 0.002ms returns 0
T0750 000:689.253 JLINK_WriteReg(R6, 0x00000000)
T0750 000:689.256 - 0.002ms returns 0
T0750 000:689.259 JLINK_WriteReg(R7, 0x00000000)
T0750 000:689.262 - 0.002ms returns 0
T0750 000:689.265 JLINK_WriteReg(R8, 0x00000000)
T0750 000:689.267 - 0.002ms returns 0
T0750 000:689.271 JLINK_WriteReg(R9, 0x20000280)
T0750 000:689.273 - 0.002ms returns 0
T0750 000:689.276 JLINK_WriteReg(R10, 0x00000000)
T0750 000:689.279 - 0.002ms returns 0
T0750 000:689.282 JLINK_WriteReg(R11, 0x00000000)
T0750 000:689.285 - 0.002ms returns 0
T0750 000:689.288 JLINK_WriteReg(R12, 0x00000000)
T0750 000:689.291 - 0.002ms returns 0
T0750 000:689.294 JLINK_WriteReg(R13 (SP), 0x20001000)
T0750 000:689.298 - 0.003ms returns 0
T0750 000:689.301 JLINK_WriteReg(R14, 0x20000001)
T0750 000:689.303 - 0.002ms returns 0
T0750 000:689.307 JLINK_WriteReg(R15 (PC), 0x200001D4)
T0750 000:689.309 - 0.002ms returns 0
T0750 000:689.313 JLINK_WriteReg(XPSR, 0x01000000)
T0750 000:689.315 - 0.002ms returns 0
T0750 000:689.319 JLINK_WriteReg(MSP, 0x20001000)
T0750 000:689.321 - 0.002ms returns 0
T0750 000:689.325 JLINK_WriteReg(PSP, 0x20001000)
T0750 000:689.327 - 0.002ms returns 0
T0750 000:689.330 JLINK_WriteReg(CFBP, 0x00000000)
T0750 000:689.333 - 0.002ms returns 0
T0750 000:689.337 JLINK_SetBPEx(Addr = 0x20000000, Type = 0xFFFFFFF2)
T0750 000:689.341 - 0.004ms returns 0x00000006
T0750 000:689.344 JLINK_Go()
T0750 000:689.351   CPU_ReadMem(4 bytes @ 0xE0001000)
T0750 000:692.717 - 3.372ms 
T0750 000:692.726 JLINK_IsHalted()
T0750 000:693.715 - 0.989ms returns FALSE
T0750 000:693.724 JLINK_HasError()
T0750 000:698.116 JLINK_IsHalted()
T0750 000:698.716 - 0.599ms returns FALSE
T0750 000:698.726 JLINK_HasError()
T0750 000:700.116 JLINK_IsHalted()
T0750 000:700.723 - 0.607ms returns FALSE
T0750 000:700.733 JLINK_HasError()
T0750 000:702.117 JLINK_IsHalted()
T0750 000:702.725 - 0.607ms returns FALSE
T0750 000:702.735 JLINK_HasError()
T0750 000:704.119 JLINK_IsHalted()
T0750 000:704.722 - 0.603ms returns FALSE
T0750 000:704.732 JLINK_HasError()
T0750 000:706.117 JLINK_IsHalted()
T0750 000:706.725 - 0.608ms returns FALSE
T0750 000:706.735 JLINK_HasError()
T0750 000:708.118 JLINK_IsHalted()
T0750 000:708.719 - 0.600ms returns FALSE
T0750 000:708.728 JLINK_HasError()
T0750 000:710.117 JLINK_IsHalted()
T0750 000:710.721 - 0.603ms returns FALSE
T0750 000:710.730 JLINK_HasError()
T0750 000:712.115 JLINK_IsHalted()
T0750 000:712.723 - 0.608ms returns FALSE
T0750 000:712.733 JLINK_HasError()
T0750 000:714.118 JLINK_IsHalted()
T0750 000:714.720 - 0.601ms returns FALSE
T0750 000:714.732 JLINK_HasError()
T0750 000:716.123 JLINK_IsHalted()
T0750 000:716.719 - 0.595ms returns FALSE
T0750 000:716.728 JLINK_HasError()
T0750 000:718.115 JLINK_IsHalted()
T0750 000:718.331 - 0.215ms returns FALSE
T0750 000:718.340 JLINK_HasError()
T0750 000:720.118 JLINK_IsHalted()
T0750 000:720.714 - 0.596ms returns FALSE
T0750 000:720.723 JLINK_HasError()
T0750 000:722.117 JLINK_IsHalted()
T0750 000:724.213   CPU_ReadMem(2 bytes @ 0x20000000)
T0750 000:726.151 - 4.033ms returns TRUE
T0750 000:726.160 JLINK_ReadReg(R15 (PC))
T0750 000:726.165 - 0.005ms returns 0x20000000
T0750 000:726.168 JLINK_ClrBPEx(BPHandle = 0x00000006)
T0750 000:726.172 - 0.003ms returns 0x00
T0750 000:726.175 JLINK_ReadReg(R0)
T0750 000:726.178 - 0.002ms returns 0x00000000
T0750 000:726.511 JLINK_WriteMem(0x20000288, 0x178 Bytes, ...)
T0750 000:726.515   Data:  00 EE 10 0A B8 EE C0 0A 82 ED 00 0A 91 ED 00 0A ...
T0750 000:726.524   CPU_WriteMem(376 bytes @ 0x20000288)
T0750 000:729.728 - 3.216ms returns 0x178
T0750 000:729.761 JLINK_WriteMem(0x20000400, 0x288 Bytes, ...)
T0750 000:729.781   Data:  00 0C 40 F2 00 0E C2 F2 00 01 4F F0 7C 52 4D F2 ...
T0750 000:729.796   CPU_WriteMem(648 bytes @ 0x20000400)
T0750 000:734.145 - 4.384ms returns 0x288
T0750 000:734.155 JLINK_HasError()
T0750 000:734.160 JLINK_WriteReg(R0, 0x08000800)
T0750 000:734.165 - 0.005ms returns 0
T0750 000:734.168 JLINK_WriteReg(R1, 0x00000400)
T0750 000:734.171 - 0.003ms returns 0
T0750 000:734.175 JLINK_WriteReg(R2, 0x20000288)
T0750 000:734.177 - 0.002ms returns 0
T0750 000:734.181 JLINK_WriteReg(R3, 0x00000000)
T0750 000:734.183 - 0.002ms returns 0
T0750 000:734.187 JLINK_WriteReg(R4, 0x00000000)
T0750 000:734.189 - 0.002ms returns 0
T0750 000:734.193 JLINK_WriteReg(R5, 0x00000000)
T0750 000:734.195 - 0.002ms returns 0
T0750 000:734.198 JLINK_WriteReg(R6, 0x00000000)
T0750 000:734.201 - 0.002ms returns 0
T0750 000:734.204 JLINK_WriteReg(R7, 0x00000000)
T0750 000:734.207 - 0.002ms returns 0
T0750 000:734.210 JLINK_WriteReg(R8, 0x00000000)
T0750 000:734.213 - 0.002ms returns 0
T0750 000:734.216 JLINK_WriteReg(R9, 0x20000280)
T0750 000:734.219 - 0.002ms returns 0
T0750 000:734.222 JLINK_WriteReg(R10, 0x00000000)
T0750 000:734.225 - 0.002ms returns 0
T0750 000:734.228 JLINK_WriteReg(R11, 0x00000000)
T0750 000:734.231 - 0.002ms returns 0
T0750 000:734.234 JLINK_WriteReg(R12, 0x00000000)
T0750 000:734.237 - 0.002ms returns 0
T0750 000:734.240 JLINK_WriteReg(R13 (SP), 0x20001000)
T0750 000:734.243 - 0.003ms returns 0
T0750 000:734.247 JLINK_WriteReg(R14, 0x20000001)
T0750 000:734.249 - 0.002ms returns 0
T0750 000:734.253 JLINK_WriteReg(R15 (PC), 0x200001D4)
T0750 000:734.255 - 0.002ms returns 0
T0750 000:734.259 JLINK_WriteReg(XPSR, 0x01000000)
T0750 000:734.261 - 0.002ms returns 0
T0750 000:734.265 JLINK_WriteReg(MSP, 0x20001000)
T0750 000:734.267 - 0.002ms returns 0
T0750 000:734.271 JLINK_WriteReg(PSP, 0x20001000)
T0750 000:734.273 - 0.002ms returns 0
T0750 000:734.277 JLINK_WriteReg(CFBP, 0x00000000)
T0750 000:734.279 - 0.002ms returns 0
T0750 000:734.283 JLINK_SetBPEx(Addr = 0x20000000, Type = 0xFFFFFFF2)
T0750 000:734.286 - 0.003ms returns 0x00000007
T0750 000:734.290 JLINK_Go()
T0750 000:734.297   CPU_ReadMem(4 bytes @ 0xE0001000)
T0750 000:737.144 - 2.853ms 
T0750 000:737.153 JLINK_IsHalted()
T0750 000:738.173 - 1.020ms returns FALSE
T0750 000:738.185 JLINK_HasError()
T0750 000:739.337 JLINK_IsHalted()
T0750 000:739.617 - 0.279ms returns FALSE
T0750 000:739.628 JLINK_HasError()
T0750 000:740.924 JLINK_IsHalted()
T0750 000:741.720 - 0.795ms returns FALSE
T0750 000:741.730 JLINK_HasError()
T0750 000:743.029 JLINK_IsHalted()
T0750 000:744.139 - 1.109ms returns FALSE
T0750 000:744.147 JLINK_HasError()
T0750 000:745.678 JLINK_IsHalted()
T0750 000:746.138 - 0.460ms returns FALSE
T0750 000:746.147 JLINK_HasError()
T0750 000:748.291 JLINK_IsHalted()
T0750 000:748.560 - 0.268ms returns FALSE
T0750 000:748.569 JLINK_HasError()
T0750 000:749.873 JLINK_IsHalted()
T0750 000:750.144 - 0.271ms returns FALSE
T0750 000:750.154 JLINK_HasError()
T0750 000:751.393 JLINK_IsHalted()
T0750 000:751.717 - 0.323ms returns FALSE
T0750 000:751.726 JLINK_HasError()
T0750 000:753.400 JLINK_IsHalted()
T0750 000:753.718 - 0.318ms returns FALSE
T0750 000:753.727 JLINK_HasError()
T0750 000:755.404 JLINK_IsHalted()
T0750 000:755.718 - 0.313ms returns FALSE
T0750 000:755.726 JLINK_HasError()
T0750 000:757.398 JLINK_IsHalted()
T0750 000:757.717 - 0.318ms returns FALSE
T0750 000:757.726 JLINK_HasError()
T0750 000:759.399 JLINK_IsHalted()
T0750 000:759.718 - 0.318ms returns FALSE
T0750 000:759.726 JLINK_HasError()
T0750 000:762.397 JLINK_IsHalted()
T0750 000:762.718 - 0.320ms returns FALSE
T0750 000:762.726 JLINK_HasError()
T0750 000:764.396 JLINK_IsHalted()
T0750 000:764.718 - 0.322ms returns FALSE
T0750 000:764.729 JLINK_HasError()
T0750 000:766.395 JLINK_IsHalted()
T0750 000:768.211   CPU_ReadMem(2 bytes @ 0x20000000)
T0750 000:770.141 - 3.746ms returns TRUE
T0750 000:770.151 JLINK_ReadReg(R15 (PC))
T0750 000:770.155 - 0.004ms returns 0x20000000
T0750 000:770.159 JLINK_ClrBPEx(BPHandle = 0x00000007)
T0750 000:770.165 - 0.005ms returns 0x00
T0750 000:770.169 JLINK_ReadReg(R0)
T0750 000:770.172 - 0.003ms returns 0x00000000
T0750 000:770.480 JLINK_WriteMem(0x20000288, 0x178 Bytes, ...)
T0750 000:770.485   Data:  C2 F2 00 04 31 80 04 F1 30 01 04 F1 34 02 00 20 ...
T0750 000:770.493   CPU_WriteMem(376 bytes @ 0x20000288)
T0750 000:773.722 - 3.241ms returns 0x178
T0750 000:773.731 JLINK_WriteMem(0x20000400, 0x288 Bytes, ...)
T0750 000:773.735   Data:  1E 22 01 F0 E7 FF 40 F2 DC 60 C2 F2 00 00 05 21 ...
T0750 000:773.743   CPU_WriteMem(648 bytes @ 0x20000400)
T0750 000:780.144 - 6.411ms returns 0x288
T0750 000:780.153 JLINK_HasError()
T0750 000:780.158 JLINK_WriteReg(R0, 0x08000C00)
T0750 000:780.163 - 0.004ms returns 0
T0750 000:780.166 JLINK_WriteReg(R1, 0x00000400)
T0750 000:780.169 - 0.003ms returns 0
T0750 000:780.172 JLINK_WriteReg(R2, 0x20000288)
T0750 000:780.175 - 0.002ms returns 0
T0750 000:780.178 JLINK_WriteReg(R3, 0x00000000)
T0750 000:780.181 - 0.002ms returns 0
T0750 000:780.184 JLINK_WriteReg(R4, 0x00000000)
T0750 000:780.187 - 0.002ms returns 0
T0750 000:780.190 JLINK_WriteReg(R5, 0x00000000)
T0750 000:780.193 - 0.002ms returns 0
T0750 000:780.196 JLINK_WriteReg(R6, 0x00000000)
T0750 000:780.199 - 0.002ms returns 0
T0750 000:780.202 JLINK_WriteReg(R7, 0x00000000)
T0750 000:780.205 - 0.002ms returns 0
T0750 000:780.208 JLINK_WriteReg(R8, 0x00000000)
T0750 000:780.211 - 0.002ms returns 0
T0750 000:780.214 JLINK_WriteReg(R9, 0x20000280)
T0750 000:780.216 - 0.002ms returns 0
T0750 000:780.220 JLINK_WriteReg(R10, 0x00000000)
T0750 000:780.222 - 0.002ms returns 0
T0750 000:780.226 JLINK_WriteReg(R11, 0x00000000)
T0750 000:780.228 - 0.002ms returns 0
T0750 000:780.232 JLINK_WriteReg(R12, 0x00000000)
T0750 000:780.234 - 0.002ms returns 0
T0750 000:780.238 JLINK_WriteReg(R13 (SP), 0x20001000)
T0750 000:780.241 - 0.003ms returns 0
T0750 000:780.244 JLINK_WriteReg(R14, 0x20000001)
T0750 000:780.247 - 0.002ms returns 0
T0750 000:780.250 JLINK_WriteReg(R15 (PC), 0x200001D4)
T0750 000:780.253 - 0.002ms returns 0
T0750 000:780.256 JLINK_WriteReg(XPSR, 0x01000000)
T0750 000:780.259 - 0.002ms returns 0
T0750 000:780.262 JLINK_WriteReg(MSP, 0x20001000)
T0750 000:780.265 - 0.002ms returns 0
T0750 000:780.268 JLINK_WriteReg(PSP, 0x20001000)
T0750 000:780.271 - 0.002ms returns 0
T0750 000:780.274 JLINK_WriteReg(CFBP, 0x00000000)
T0750 000:780.276 - 0.002ms returns 0
T0750 000:780.280 JLINK_SetBPEx(Addr = 0x20000000, Type = 0xFFFFFFF2)
T0750 000:780.284 - 0.003ms returns 0x00000008
T0750 000:780.287 JLINK_Go()
T0750 000:780.294   CPU_ReadMem(4 bytes @ 0xE0001000)
T0750 000:783.138 - 2.851ms 
T0750 000:783.147 JLINK_IsHalted()
T0750 000:784.138 - 0.991ms returns FALSE
T0750 000:784.147 JLINK_HasError()
T0750 000:785.399 JLINK_IsHalted()
T0750 000:785.718 - 0.318ms returns FALSE
T0750 000:785.726 JLINK_HasError()
T0750 000:787.394 JLINK_IsHalted()
T0750 000:788.138 - 0.744ms returns FALSE
T0750 000:788.147 JLINK_HasError()
T0750 000:789.421 JLINK_IsHalted()
T0750 000:789.718 - 0.297ms returns FALSE
T0750 000:789.728 JLINK_HasError()
T0750 000:791.399 JLINK_IsHalted()
T0750 000:791.718 - 0.319ms returns FALSE
T0750 000:791.726 JLINK_HasError()
T0750 000:793.397 JLINK_IsHalted()
T0750 000:793.795 - 0.398ms returns FALSE
T0750 000:793.805 JLINK_HasError()
T0750 000:795.395 JLINK_IsHalted()
T0750 000:795.718 - 0.323ms returns FALSE
T0750 000:795.727 JLINK_HasError()
T0750 000:797.399 JLINK_IsHalted()
T0750 000:797.718 - 0.318ms returns FALSE
T0750 000:797.726 JLINK_HasError()
T0750 000:799.398 JLINK_IsHalted()
T0750 000:799.718 - 0.319ms returns FALSE
T0750 000:799.726 JLINK_HasError()
T0750 000:801.398 JLINK_IsHalted()
T0750 000:801.718 - 0.319ms returns FALSE
T0750 000:801.726 JLINK_HasError()
T0750 000:803.399 JLINK_IsHalted()
T0750 000:803.718 - 0.318ms returns FALSE
T0750 000:803.726 JLINK_HasError()
T0750 000:805.392 JLINK_IsHalted()
T0750 000:806.138 - 0.746ms returns FALSE
T0750 000:806.147 JLINK_HasError()
T0750 000:807.393 JLINK_IsHalted()
T0750 000:807.718 - 0.324ms returns FALSE
T0750 000:807.726 JLINK_HasError()
T0750 000:808.936 JLINK_IsHalted()
T0750 000:809.718 - 0.781ms returns FALSE
T0750 000:809.727 JLINK_HasError()
T0750 000:810.941 JLINK_IsHalted()
T0750 000:811.718 - 0.777ms returns FALSE
T0750 000:811.727 JLINK_HasError()
T0750 000:812.938 JLINK_IsHalted()
T0750 000:815.211   CPU_ReadMem(2 bytes @ 0x20000000)
T0750 000:817.141 - 4.203ms returns TRUE
T0750 000:817.153 JLINK_ReadReg(R15 (PC))
T0750 000:817.157 - 0.004ms returns 0x20000000
T0750 000:817.162 JLINK_ClrBPEx(BPHandle = 0x00000008)
T0750 000:817.165 - 0.003ms returns 0x00
T0750 000:817.191 JLINK_ReadReg(R0)
T0750 000:817.200 - 0.008ms returns 0x00000000
T0750 000:817.497 JLINK_WriteMem(0x20000288, 0x178 Bytes, ...)
T0750 000:817.501   Data:  40 2A C0 E9 03 11 C8 BF B0 EE 61 1A F1 EE 10 FA ...
T0750 000:817.509   CPU_WriteMem(376 bytes @ 0x20000288)
T0750 000:820.723 - 3.225ms returns 0x178
T0750 000:820.732 JLINK_WriteMem(0x20000400, 0x288 Bytes, ...)
T0750 000:820.736   Data:  F0 81 00 2E E5 78 94 F8 04 C0 18 BF 30 70 00 29 ...
T0750 000:820.744   CPU_WriteMem(648 bytes @ 0x20000400)
T0750 000:827.140 - 6.407ms returns 0x288
T0750 000:827.150 JLINK_HasError()
T0750 000:827.154 JLINK_WriteReg(R0, 0x08001000)
T0750 000:827.159 - 0.004ms returns 0
T0750 000:827.162 JLINK_WriteReg(R1, 0x00000400)
T0750 000:827.165 - 0.002ms returns 0
T0750 000:827.169 JLINK_WriteReg(R2, 0x20000288)
T0750 000:827.171 - 0.002ms returns 0
T0750 000:827.175 JLINK_WriteReg(R3, 0x00000000)
T0750 000:827.177 - 0.002ms returns 0
T0750 000:827.181 JLINK_WriteReg(R4, 0x00000000)
T0750 000:827.183 - 0.002ms returns 0
T0750 000:827.186 JLINK_WriteReg(R5, 0x00000000)
T0750 000:827.189 - 0.002ms returns 0
T0750 000:827.192 JLINK_WriteReg(R6, 0x00000000)
T0750 000:827.195 - 0.002ms returns 0
T0750 000:827.198 JLINK_WriteReg(R7, 0x00000000)
T0750 000:827.201 - 0.002ms returns 0
T0750 000:827.204 JLINK_WriteReg(R8, 0x00000000)
T0750 000:827.207 - 0.002ms returns 0
T0750 000:827.210 JLINK_WriteReg(R9, 0x20000280)
T0750 000:827.213 - 0.002ms returns 0
T0750 000:827.216 JLINK_WriteReg(R10, 0x00000000)
T0750 000:827.219 - 0.002ms returns 0
T0750 000:827.222 JLINK_WriteReg(R11, 0x00000000)
T0750 000:827.225 - 0.002ms returns 0
T0750 000:827.228 JLINK_WriteReg(R12, 0x00000000)
T0750 000:827.231 - 0.002ms returns 0
T0750 000:827.234 JLINK_WriteReg(R13 (SP), 0x20001000)
T0750 000:827.237 - 0.003ms returns 0
T0750 000:827.240 JLINK_WriteReg(R14, 0x20000001)
T0750 000:827.243 - 0.002ms returns 0
T0750 000:827.246 JLINK_WriteReg(R15 (PC), 0x200001D4)
T0750 000:827.249 - 0.002ms returns 0
T0750 000:827.252 JLINK_WriteReg(XPSR, 0x01000000)
T0750 000:827.255 - 0.002ms returns 0
T0750 000:827.258 JLINK_WriteReg(MSP, 0x20001000)
T0750 000:827.261 - 0.002ms returns 0
T0750 000:827.264 JLINK_WriteReg(PSP, 0x20001000)
T0750 000:827.267 - 0.002ms returns 0
T0750 000:827.270 JLINK_WriteReg(CFBP, 0x00000000)
T0750 000:827.273 - 0.002ms returns 0
T0750 000:827.276 JLINK_SetBPEx(Addr = 0x20000000, Type = 0xFFFFFFF2)
T0750 000:827.280 - 0.003ms returns 0x00000009
T0750 000:827.283 JLINK_Go()
T0750 000:827.290   CPU_ReadMem(4 bytes @ 0xE0001000)
T0750 000:831.718 - 4.435ms 
T0750 000:831.727 JLINK_IsHalted()
T0750 000:832.718 - 0.990ms returns FALSE
T0750 000:832.727 JLINK_HasError()
T0750 000:833.942 JLINK_IsHalted()
T0750 000:834.718 - 0.775ms returns FALSE
T0750 000:834.727 JLINK_HasError()
T0750 000:835.951 JLINK_IsHalted()
T0750 000:836.719 - 0.767ms returns FALSE
T0750 000:836.727 JLINK_HasError()
T0750 000:837.943 JLINK_IsHalted()
T0750 000:838.718 - 0.774ms returns FALSE
T0750 000:838.727 JLINK_HasError()
T0750 000:839.946 JLINK_IsHalted()
T0750 000:840.717 - 0.771ms returns FALSE
T0750 000:840.727 JLINK_HasError()
T0750 000:841.965 JLINK_IsHalted()
T0750 000:842.720 - 0.754ms returns FALSE
T0750 000:842.729 JLINK_HasError()
T0750 000:843.944 JLINK_IsHalted()
T0750 000:844.717 - 0.772ms returns FALSE
T0750 000:844.726 JLINK_HasError()
T0750 000:845.942 JLINK_IsHalted()
T0750 000:846.719 - 0.776ms returns FALSE
T0750 000:846.727 JLINK_HasError()
T0750 000:847.938 JLINK_IsHalted()
T0750 000:848.718 - 0.779ms returns FALSE
T0750 000:848.727 JLINK_HasError()
T0750 000:849.945 JLINK_IsHalted()
T0750 000:850.151 - 0.206ms returns FALSE
T0750 000:850.160 JLINK_HasError()
T0750 000:851.941 JLINK_IsHalted()
T0750 000:852.717 - 0.775ms returns FALSE
T0750 000:852.726 JLINK_HasError()
T0750 000:853.938 JLINK_IsHalted()
T0750 000:854.719 - 0.780ms returns FALSE
T0750 000:854.727 JLINK_HasError()
T0750 000:855.938 JLINK_IsHalted()
T0750 000:856.721 - 0.783ms returns FALSE
T0750 000:856.731 JLINK_HasError()
T0750 000:858.941 JLINK_IsHalted()
T0750 000:859.723 - 0.782ms returns FALSE
T0750 000:859.731 JLINK_HasError()
T0750 000:861.456 JLINK_IsHalted()
T0750 000:863.211   CPU_ReadMem(2 bytes @ 0x20000000)
T0750 000:865.142 - 3.686ms returns TRUE
T0750 000:865.151 JLINK_ReadReg(R15 (PC))
T0750 000:865.155 - 0.004ms returns 0x20000000
T0750 000:865.159 JLINK_ClrBPEx(BPHandle = 0x00000009)
T0750 000:865.162 - 0.003ms returns 0x00
T0750 000:865.166 JLINK_ReadReg(R0)
T0750 000:865.169 - 0.003ms returns 0x00000000
T0750 000:865.465 JLINK_WriteMem(0x20000288, 0x178 Bytes, ...)
T0750 000:865.470   Data:  04 3A 21 EE 03 1A B5 EE 40 1A F1 EE 10 FA 84 ED ...
T0750 000:865.477   CPU_WriteMem(376 bytes @ 0x20000288)
T0750 000:868.722 - 3.256ms returns 0x178
T0750 000:868.734 JLINK_WriteMem(0x20000400, 0x288 Bytes, ...)
T0750 000:868.737   Data:  30 EE 01 0A B6 EE 00 1A 24 EE 01 2A 23 EE 01 1A ...
T0750 000:868.746   CPU_WriteMem(648 bytes @ 0x20000400)
T0750 000:873.141 - 4.406ms returns 0x288
T0750 000:873.153 JLINK_HasError()
T0750 000:873.180 JLINK_WriteReg(R0, 0x08001400)
T0750 000:873.189 - 0.009ms returns 0
T0750 000:873.193 JLINK_WriteReg(R1, 0x00000400)
T0750 000:873.196 - 0.003ms returns 0
T0750 000:873.200 JLINK_WriteReg(R2, 0x20000288)
T0750 000:873.202 - 0.002ms returns 0
T0750 000:873.206 JLINK_WriteReg(R3, 0x00000000)
T0750 000:873.208 - 0.002ms returns 0
T0750 000:873.211 JLINK_WriteReg(R4, 0x00000000)
T0750 000:873.214 - 0.002ms returns 0
T0750 000:873.217 JLINK_WriteReg(R5, 0x00000000)
T0750 000:873.220 - 0.002ms returns 0
T0750 000:873.223 JLINK_WriteReg(R6, 0x00000000)
T0750 000:873.226 - 0.002ms returns 0
T0750 000:873.229 JLINK_WriteReg(R7, 0x00000000)
T0750 000:873.232 - 0.002ms returns 0
T0750 000:873.235 JLINK_WriteReg(R8, 0x00000000)
T0750 000:873.238 - 0.002ms returns 0
T0750 000:873.241 JLINK_WriteReg(R9, 0x20000280)
T0750 000:873.244 - 0.002ms returns 0
T0750 000:873.247 JLINK_WriteReg(R10, 0x00000000)
T0750 000:873.250 - 0.002ms returns 0
T0750 000:873.253 JLINK_WriteReg(R11, 0x00000000)
T0750 000:873.256 - 0.002ms returns 0
T0750 000:873.259 JLINK_WriteReg(R12, 0x00000000)
T0750 000:873.261 - 0.002ms returns 0
T0750 000:873.265 JLINK_WriteReg(R13 (SP), 0x20001000)
T0750 000:873.268 - 0.003ms returns 0
T0750 000:873.271 JLINK_WriteReg(R14, 0x20000001)
T0750 000:873.274 - 0.002ms returns 0
T0750 000:873.277 JLINK_WriteReg(R15 (PC), 0x200001D4)
T0750 000:873.280 - 0.002ms returns 0
T0750 000:873.283 JLINK_WriteReg(XPSR, 0x01000000)
T0750 000:873.286 - 0.002ms returns 0
T0750 000:873.289 JLINK_WriteReg(MSP, 0x20001000)
T0750 000:873.291 - 0.002ms returns 0
T0750 000:873.295 JLINK_WriteReg(PSP, 0x20001000)
T0750 000:873.297 - 0.002ms returns 0
T0750 000:873.300 JLINK_WriteReg(CFBP, 0x00000000)
T0750 000:873.303 - 0.002ms returns 0
T0750 000:873.307 JLINK_SetBPEx(Addr = 0x20000000, Type = 0xFFFFFFF2)
T0750 000:873.311 - 0.004ms returns 0x0000000A
T0750 000:873.314 JLINK_Go()
T0750 000:873.321   CPU_ReadMem(4 bytes @ 0xE0001000)
T0750 000:876.139 - 2.825ms 
T0750 000:876.148 JLINK_IsHalted()
T0750 000:877.138 - 0.989ms returns FALSE
T0750 000:877.147 JLINK_HasError()
T0750 000:878.454 JLINK_IsHalted()
T0750 000:878.724 - 0.270ms returns FALSE
T0750 000:878.734 JLINK_HasError()
T0750 000:880.452 JLINK_IsHalted()
T0750 000:880.719 - 0.266ms returns FALSE
T0750 000:880.727 JLINK_HasError()
T0750 000:882.446 JLINK_IsHalted()
T0750 000:882.719 - 0.272ms returns FALSE
T0750 000:882.727 JLINK_HasError()
T0750 000:884.451 JLINK_IsHalted()
T0750 000:884.719 - 0.267ms returns FALSE
T0750 000:884.727 JLINK_HasError()
T0750 000:886.450 JLINK_IsHalted()
T0750 000:886.719 - 0.269ms returns FALSE
T0750 000:886.727 JLINK_HasError()
T0750 000:888.448 JLINK_IsHalted()
T0750 000:888.720 - 0.271ms returns FALSE
T0750 000:888.729 JLINK_HasError()
T0750 000:890.451 JLINK_IsHalted()
T0750 000:890.719 - 0.268ms returns FALSE
T0750 000:890.728 JLINK_HasError()
T0750 000:892.448 JLINK_IsHalted()
T0750 000:892.719 - 0.271ms returns FALSE
T0750 000:892.727 JLINK_HasError()
T0750 000:894.454 JLINK_IsHalted()
T0750 000:894.720 - 0.265ms returns FALSE
T0750 000:894.730 JLINK_HasError()
T0750 000:896.451 JLINK_IsHalted()
T0750 000:896.719 - 0.267ms returns FALSE
T0750 000:896.727 JLINK_HasError()
T0750 000:898.452 JLINK_IsHalted()
T0750 000:898.719 - 0.267ms returns FALSE
T0750 000:898.728 JLINK_HasError()
T0750 000:900.446 JLINK_IsHalted()
T0750 000:900.719 - 0.272ms returns FALSE
T0750 000:900.727 JLINK_HasError()
T0750 000:902.446 JLINK_IsHalted()
T0750 000:902.719 - 0.272ms returns FALSE
T0750 000:902.727 JLINK_HasError()
T0750 000:904.452 JLINK_IsHalted()
T0750 000:906.789   CPU_ReadMem(2 bytes @ 0x20000000)
T0750 000:907.726 - 3.274ms returns TRUE
T0750 000:907.735 JLINK_ReadReg(R15 (PC))
T0750 000:907.740 - 0.004ms returns 0x20000000
T0750 000:907.743 JLINK_ClrBPEx(BPHandle = 0x0000000A)
T0750 000:907.746 - 0.003ms returns 0x00
T0750 000:907.750 JLINK_ReadReg(R0)
T0750 000:907.753 - 0.003ms returns 0x00000000
T0750 000:908.044 JLINK_WriteMem(0x20000288, 0x178 Bytes, ...)
T0750 000:908.048   Data:  11 FC 40 F2 EA 10 C2 F2 00 00 00 88 84 ED 17 0A ...
T0750 000:908.056   CPU_WriteMem(376 bytes @ 0x20000288)
